T4978 000:009.227   SEGGER J-Link V6.86 Log File
T4978 000:009.500   DLL Compiled: Sep 24 2020 17:31:31
T4978 000:009.514   Logging started @ 2024-04-29 05:45
T4978 000:009.526 - 9.532ms
T4978 000:009.549 JLINK_SetWarnOutHandler(...)
T4978 000:009.562 - 0.018ms
T4978 000:009.574 JLINK_OpenEx(...)
T4978 000:011.673   Firmware: J-Link V9 compiled May  7 2021 16:26:12
T4978 000:011.879   Decompressing FW timestamp took 133 us
T4978 000:019.896   Hardware: V9.40
T4978 000:019.983   S/N: 59417452
T4978 000:020.019   OEM: SEGGER
T4978 000:020.054   Feature(s): RDI, GDB, FlashDL, FlashBP, JFlash
T4978 000:022.312   TELNET listener socket opened on port 19021
T4978 000:022.543   WEBSRV Starting webserver
T4978 000:022.765   WEBSRV Webserver running on local port 19080
T4978 000:022.794 - 13.225ms returns "O.K."
T4978 000:022.816 JLINK_GetEmuCaps()
T4978 000:022.828 - 0.018ms returns 0xB9FF7BBF
T4978 000:022.843 JLINK_TIF_GetAvailable(...)
T4978 000:023.332 - 0.519ms
T4978 000:023.377 JLINK_SetErrorOutHandler(...)
T4978 000:023.389 - 0.017ms
T4978 000:023.423 JLINK_ExecCommand("ProjectFile = "C:\Users\lin.qi\Desktop\GCC\Nations.N32H47x_48x_Library.0.8.0 - 0411\projects\n32h47x_48x_EVAL\examples\GPIO\LedBlink\MDK-ARM\JLinkSettings.ini"", ...). 
T4978 000:047.383   Device "CORTEX-M4" selected.
T4978 000:053.333 - 29.954ms returns 0x00
T4978 000:056.530 JLINK_ExecCommand("Device = N32H487ZE", ...). 
T4978 000:061.038   Device "CORTEX-M4" selected.
T4978 000:066.574 - 10.015ms returns 0x00
T4978 000:066.628 JLINK_GetHardwareVersion()
T4978 000:066.640 - 0.017ms returns 94000
T4978 000:066.671 JLINK_GetDLLVersion()
T4978 000:066.682 - 0.017ms returns 68600
T4978 000:066.695 JLINK_GetOEMString(...)
T4978 000:066.707 JLINK_GetFirmwareString(...)
T4978 000:066.719 - 0.017ms
T4978 000:074.481 JLINK_GetDLLVersion()
T4978 000:074.538 - 0.063ms returns 68600
T4978 000:074.552 JLINK_GetCompileDateTime()
T4978 000:074.563 - 0.017ms
T4978 000:079.996 JLINK_GetFirmwareString(...)
T4978 000:080.047 - 0.056ms
T4978 000:082.894 JLINK_GetHardwareVersion()
T4978 000:082.935 - 0.047ms returns 94000
T4978 000:085.991 JLINK_GetSN()
T4978 000:086.033 - 0.048ms returns 59417452
T4978 000:088.879 JLINK_GetOEMString(...)
T4978 000:095.337 JLINK_TIF_Select(JLINKARM_TIF_SWD)
T4978 000:097.504 - 2.184ms returns 0x00
T4978 000:097.531 JLINK_HasError()
T4978 000:097.555 JLINK_SetSpeed(1000)
T4978 000:098.245 - 0.719ms
T4978 000:098.294 JLINK_GetId()
T4978 000:103.554   Found SW-DP with ID 0x2BA01477
T4978 000:112.467   DPIDR: 0x2BA01477
T4978 000:115.186   Scanning AP map to find all available APs
T4978 000:120.207   AP[1]: Stopped AP scan as end of AP map has been reached
T4978 000:122.750   AP[0]: AHB-AP (IDR: 0x24770011)
T4978 000:125.628   Iterating through AP map to find AHB-AP to use
T4978 000:130.334   AP[0]: Core found
T4978 000:132.882   AP[0]: AHB-AP ROM base: 0xE00FF000
T4978 000:136.768   CPUID register: 0x410FC241. Implementer code: 0x41 (ARM)
T4978 000:140.223   Found Cortex-M4 r0p1, Little endian.
T4978 000:242.453   -- Max. mem block: 0x00010E60
T4978 000:242.555   CPU_ReadMem(4 bytes @ 0xE000EDF0)
T4978 000:243.929   CPU_WriteMem(4 bytes @ 0xE000EDF0)
T4978 000:244.750   CPU_ReadMem(4 bytes @ 0xE0002000)
T4978 000:248.844   FPUnit: 6 code (BP) slots and 2 literal slots
T4978 000:248.915   CPU_ReadMem(4 bytes @ 0xE000EDFC)
T4978 000:250.014   CPU_WriteMem(4 bytes @ 0xE000EDFC)
T4978 000:250.813   CPU_ReadMem(4 bytes @ 0xE0001000)
T4978 000:251.557   CPU_WriteMem(4 bytes @ 0xE0001000)
T4978 000:252.365   CPU_ReadMem(4 bytes @ 0xE000ED88)
T4978 000:253.189   CPU_WriteMem(4 bytes @ 0xE000ED88)
T4978 000:253.956   CPU_ReadMem(4 bytes @ 0xE000ED88)
T4978 000:254.788   CPU_WriteMem(4 bytes @ 0xE000ED88)
T4978 000:259.147   CoreSight components:
T4978 000:262.974   ROMTbl[0] @ E00FF000
T4978 000:263.044   CPU_ReadMem(64 bytes @ 0xE00FF000)
T4978 000:264.671   CPU_ReadMem(32 bytes @ 0xE000EFE0)
T4978 000:269.774   ROMTbl[0][0]: E000E000, CID: B105E00D, PID: 000BB00C SCS-M7
T4978 000:269.839   CPU_ReadMem(32 bytes @ 0xE0001FE0)
T4978 000:273.923   ROMTbl[0][1]: E0001000, CID: B105E00D, PID: 003BB002 DWT
T4978 000:273.991   CPU_ReadMem(32 bytes @ 0xE0002FE0)
T4978 000:279.020   ROMTbl[0][2]: E0002000, CID: B105E00D, PID: 002BB003 FPB
T4978 000:279.088   CPU_ReadMem(32 bytes @ 0xE0000FE0)
T4978 000:283.288   ROMTbl[0][3]: E0000000, CID: B105E00D, PID: 003BB001 ITM
T4978 000:283.345   CPU_ReadMem(32 bytes @ 0xE0040FE0)
T4978 000:287.220   ROMTbl[0][4]: E0040000, CID: B105900D, PID: 000BB9A1 TPIU
T4978 000:287.275   CPU_ReadMem(32 bytes @ 0xE0041FE0)
T4978 000:291.247   ROMTbl[0][5]: E0041000, CID: B105900D, PID: 000BB925 ETM
T4978 000:291.961 - 193.700ms returns 0x2BA01477
T4978 000:292.012 JLINK_GetDLLVersion()
T4978 000:292.025 - 0.018ms returns 68600
T4978 000:292.217 JLINK_CORE_GetFound()
T4978 000:292.316 - 0.112ms returns 0xE0000FF
T4978 000:292.346 JLINK_GetDebugInfo(0x100 = JLINKARM_ROM_TABLE_ADDR_INDEX)
T4978 000:292.374   Value=0xE00FF000
T4978 000:292.411 - 0.077ms returns 0
T4978 000:295.820 JLINK_GetDebugInfo(0x100 = JLINKARM_ROM_TABLE_ADDR_INDEX)
T4978 000:295.876   Value=0xE00FF000
T4978 000:295.893 - 0.078ms returns 0
T4978 000:295.906 JLINK_GetDebugInfo(0x101 = JLINKARM_DEBUG_INFO_ETM_ADDR_INDEX)
T4978 000:295.918   Value=0xE0041000
T4978 000:295.934 - 0.033ms returns 0
T4978 000:295.970 JLINK_ReadMemEx(0xE0041FD0, 0x20 Bytes, Flags = 0x02000004)
T4978 000:296.010   CPU_ReadMem(32 bytes @ 0xE0041FD0)
T4978 000:297.272   Data:  04 00 00 00 00 00 00 00 00 00 00 00 00 00 00 00 ...
T4978 000:297.300 - 1.335ms returns 32 (0x20)
T4978 000:297.314 JLINK_GetDebugInfo(0x102 = JLINKARM_DEBUG_INFO_MTB_ADDR_INDEX)
T4978 000:297.327   Value=0x00000000
T4978 000:297.346 - 0.037ms returns 0
T4978 000:297.358 JLINK_GetDebugInfo(0x103 = JLINKARM_DEBUG_INFO_TPIU_ADDR_INDEX)
T4978 000:297.370   Value=0xE0040000
T4978 000:297.386 - 0.033ms returns 0
T4978 000:297.398 JLINK_GetDebugInfo(0x104 = JLINKARM_DEBUG_INFO_ITM_ADDR_INDEX)
T4978 000:297.409   Value=0xE0000000
T4978 000:297.425 - 0.032ms returns 0
T4978 000:297.437 JLINK_GetDebugInfo(0x105 = JLINKARM_DEBUG_INFO_DWT_ADDR_INDEX)
T4978 000:297.448   Value=0xE0001000
T4978 000:297.464 - 0.033ms returns 0
T4978 000:297.476 JLINK_GetDebugInfo(0x106 = JLINKARM_DEBUG_INFO_FPB_ADDR_INDEX)
T4978 000:297.487   Value=0xE0002000
T4978 000:297.503 - 0.032ms returns 0
T4978 000:297.515 JLINK_GetDebugInfo(0x107 = JLINKARM_DEBUG_INFO_NVIC_ADDR_INDEX)
T4978 000:297.527   Value=0xE000E000
T4978 000:297.543 - 0.032ms returns 0
T4978 000:297.555 JLINK_GetDebugInfo(0x10C = JLINKARM_DEBUG_INFO_DBG_ADDR_INDEX)
T4978 000:297.566   Value=0xE000EDF0
T4978 000:297.582 - 0.032ms returns 0
T4978 000:297.594 JLINK_GetDebugInfo(0x01 = Unknown)
T4978 000:297.606   Value=0x00000001
T4978 000:297.622 - 0.033ms returns 0
T4978 000:297.634 JLINK_ReadMemU32(0xE000ED00, 0x1 Items)
T4978 000:297.649   CPU_ReadMem(4 bytes @ 0xE000ED00)
T4978 000:298.474   Data:  41 C2 0F 41
T4978 000:298.502   Debug reg: CPUID
T4978 000:298.519 - 0.890ms returns 1 (0x1)
T4978 000:298.533 JLINK_GetDebugInfo(0x10F = JLINKARM_DEBUG_INFO_HAS_CORTEX_M_SECURITY_EXT_INDEX)
T4978 000:298.544   Value=0x00000000
T4978 000:298.560 - 0.033ms returns 0
T4978 000:298.573 JLINK_HasError()
T4978 000:298.585 JLINK_SetResetType(JLINKARM_CM3_RESET_TYPE_NORMAL)
T4978 000:298.597 - 0.016ms returns JLINKARM_CM3_RESET_TYPE_NORMAL
T4978 000:298.609 JLINK_Reset()
T4978 000:298.642   CPU is running
T4978 000:298.661   CPU_WriteMem(4 bytes @ 0xE000EDF0)
T4978 000:299.523   CPU is running
T4978 000:299.553   CPU_WriteMem(4 bytes @ 0xE000EDFC)
T4978 000:303.591   Reset: Halt core after reset via DEMCR.VC_CORERESET.
T4978 000:307.963   Reset: Reset device via AIRCR.SYSRESETREQ.
T4978 000:308.034   CPU is running
T4978 000:308.055   CPU_WriteMem(4 bytes @ 0xE000ED0C)
T4978 000:361.004   CPU_ReadMem(4 bytes @ 0xE000EDF0)
T4978 000:361.934   CPU_ReadMem(4 bytes @ 0xE000EDF0)
T4978 000:362.796   CPU is running
T4978 000:362.825   CPU_WriteMem(4 bytes @ 0xE000EDF0)
T4978 000:363.674   CPU is running
T4978 000:363.755   CPU_WriteMem(4 bytes @ 0xE000EDFC)
T4978 000:370.618   CPU_ReadMem(4 bytes @ 0xE000EDF0)
T4978 000:378.428   CPU_WriteMem(4 bytes @ 0xE0002000)
T4978 000:379.461   CPU_ReadMem(4 bytes @ 0xE000EDFC)
T4978 000:380.414   CPU_ReadMem(4 bytes @ 0xE0001000)
T4978 000:381.305 - 82.728ms
T4978 000:381.362 JLINK_Halt()
T4978 000:381.387 - 0.031ms returns 0x00
T4978 000:381.402 JLINK_ReadMemU32(0xE000EDF0, 0x1 Items)
T4978 000:381.422   CPU_ReadMem(4 bytes @ 0xE000EDF0)
T4978 000:382.245   Data:  03 00 03 00
T4978 000:382.272   Debug reg: DHCSR
T4978 000:382.289 - 0.891ms returns 1 (0x1)
T4978 000:382.317 JLINK_WriteU32_64(0xE000EDF0, 0xA05F0003)
T4978 000:382.331   Debug reg: DHCSR
T4978 000:382.360   CPU_WriteMem(4 bytes @ 0xE000EDF0)
T4978 000:383.168 - 0.866ms returns 0 (0x00000000)
T4978 000:383.194 JLINK_WriteU32_64(0xE000EDFC, 0x01000000)
T4978 000:383.206   Debug reg: DEMCR
T4978 000:383.227   CPU_WriteMem(4 bytes @ 0xE000EDFC)
T4978 000:384.049 - 0.873ms returns 0 (0x00000000)
T4978 000:396.361 JLINK_GetHWStatus(...)
T4978 000:397.108 - 0.764ms returns 0
T4978 000:406.503 JLINK_GetNumBPUnits(Type = 0xFFFFFF00)
T4978 000:406.562 - 0.066ms returns 0x06
T4978 000:406.576 JLINK_GetNumBPUnits(Type = 0xF0)
T4978 000:406.588 - 0.017ms returns 0x2000
T4978 000:406.601 JLINK_GetNumWPUnits()
T4978 000:406.612 - 0.019ms returns 4
T4978 000:415.039 JLINK_GetSpeed()
T4978 000:415.100 - 0.066ms returns 1000
T4978 000:420.726 JLINK_ReadMemU32(0xE000E004, 0x1 Items)
T4978 000:420.801   CPU_ReadMem(4 bytes @ 0xE000E004)
T4978 000:421.730   Data:  03 00 00 00
T4978 000:421.788 - 1.073ms returns 1 (0x1)
T4978 000:421.818 JLINK_ReadMemU32(0xE000E004, 0x1 Items)
T4978 000:421.849   CPU_ReadMem(4 bytes @ 0xE000E004)
T4978 000:422.738   Data:  03 00 00 00
T4978 000:422.816 - 1.014ms returns 1 (0x1)
T4978 000:422.856 JLINK_WriteMemEx(0xE0001000, 0x0000001C Bytes, Flags = 0x02000004)
T4978 000:422.890   Data:  01 00 00 00 00 00 00 00 00 00 00 00 00 00 00 00 ...
T4978 000:423.285   CPU_WriteMem(28 bytes @ 0xE0001000)
T4978 000:424.616 - 1.776ms returns 0x1C
T4978 000:424.644 JLINK_Halt()
T4978 000:424.657 - 0.017ms returns 0x00
T4978 000:424.669 JLINK_IsHalted()
T4978 000:424.681 - 0.018ms returns TRUE
T4978 000:434.650 JLINK_WriteMem(0x20000000, 0x1A8 Bytes, ...)
T4978 000:434.678   Data:  00 BE 0A E0 0D 78 2D 06 68 40 08 24 40 00 00 D3 ...
T4978 000:434.882   CPU_WriteMem(424 bytes @ 0x20000000)
T4978 000:441.114 - 6.511ms returns 0x1A8
T4978 000:441.315 JLINK_HasError()
T4978 000:441.362 JLINK_WriteReg(R0, 0x08000000)
T4978 000:441.402 - 0.056ms returns 0
T4978 000:441.438 JLINK_WriteReg(R1, 0x00B71B00)
T4978 000:441.472 - 0.049ms returns 0
T4978 000:441.506 JLINK_WriteReg(R2, 0x00000001)
T4978 000:441.539 - 0.048ms returns 0
T4978 000:441.573 JLINK_WriteReg(R3, 0x00000000)
T4978 000:441.606 - 0.048ms returns 0
T4978 000:441.640 JLINK_WriteReg(R4, 0x00000000)
T4978 000:441.673 - 0.048ms returns 0
T4978 000:441.707 JLINK_WriteReg(R5, 0x00000000)
T4978 000:441.740 - 0.048ms returns 0
T4978 000:441.773 JLINK_WriteReg(R6, 0x00000000)
T4978 000:441.809 - 0.052ms returns 0
T4978 000:441.844 JLINK_WriteReg(R7, 0x00000000)
T4978 000:441.877 - 0.049ms returns 0
T4978 000:441.912 JLINK_WriteReg(R8, 0x00000000)
T4978 000:442.382 - 0.489ms returns 0
T4978 000:442.425 JLINK_WriteReg(R9, 0x200001A0)
T4978 000:442.460 - 0.050ms returns 0
T4978 000:442.495 JLINK_WriteReg(R10, 0x00000000)
T4978 000:442.530 - 0.051ms returns 0
T4978 000:442.565 JLINK_WriteReg(R11, 0x00000000)
T4978 000:442.600 - 0.050ms returns 0
T4978 000:442.637 JLINK_WriteReg(R12, 0x00000000)
T4978 000:442.666 - 0.042ms returns 0
T4978 000:442.693 JLINK_WriteReg(R13 (SP), 0x20001000)
T4978 000:442.719 - 0.038ms returns 0
T4978 000:442.746 JLINK_WriteReg(R14, 0x20000001)
T4978 000:442.772 - 0.038ms returns 0
T4978 000:442.798 JLINK_WriteReg(R15 (PC), 0x20000038)
T4978 000:442.845 - 0.059ms returns 0
T4978 000:442.872 JLINK_WriteReg(XPSR, 0x01000000)
T4978 000:442.897 - 0.042ms returns 0
T4978 000:442.932 JLINK_WriteReg(MSP, 0x20001000)
T4978 000:442.958 - 0.038ms returns 0
T4978 000:442.984 JLINK_WriteReg(PSP, 0x20001000)
T4978 000:443.010 - 0.037ms returns 0
T4978 000:443.036 JLINK_WriteReg(CFBP, 0x00000000)
T4978 000:443.062 - 0.038ms returns 0
T4978 000:443.089 JLINK_SetBPEx(Addr = 0x20000000, Type = 0xFFFFFFF2)
T4978 000:443.124   CPU_ReadMem(4 bytes @ 0x20000000)
T4978 000:443.980   CPU_WriteMem(4 bytes @ 0x20000000)
T4978 000:444.790   CPU_ReadMem(4 bytes @ 0x20000000)
T4978 000:445.581   CPU_WriteMem(4 bytes @ 0x20000000)
T4978 000:446.387   CPU_ReadMem(2 bytes @ 0x20000000)
T4978 000:447.337 - 4.295ms returns 0x00000001
T4978 000:447.411 JLINK_Go()
T4978 000:447.453   CPU_WriteMem(2 bytes @ 0x20000000)
T4978 000:448.339   CPU_ReadMem(4 bytes @ 0xE0001000)
T4978 000:449.173   CPU_WriteMem(4 bytes @ 0xE0002008)
T4978 000:449.233   CPU_WriteMem(4 bytes @ 0xE000200C)
T4978 000:449.269   CPU_WriteMem(4 bytes @ 0xE0002010)
T4978 000:449.304   CPU_WriteMem(4 bytes @ 0xE0002014)
T4978 000:449.339   CPU_WriteMem(4 bytes @ 0xE0002018)
T4978 000:449.374   CPU_WriteMem(4 bytes @ 0xE000201C)
T4978 000:452.069   CPU_WriteMem(4 bytes @ 0xE0001004)
T4978 000:459.386 - 12.011ms
T4978 000:459.444 JLINK_IsHalted()
T4978 000:466.233   CPU_ReadMem(2 bytes @ 0x20000000)
T4978 000:467.167 - 7.768ms returns TRUE
T4978 000:467.242 JLINK_ReadReg(R15 (PC))
T4978 000:467.282 - 0.057ms returns 0x20000000
T4978 000:467.320 JLINK_ClrBPEx(BPHandle = 0x00000001)
T4978 000:467.354 - 0.050ms returns 0x00
T4978 000:467.390 JLINK_ReadReg(R0)
T4978 000:467.424 - 0.049ms returns 0x00000000
T4978 000:468.480 JLINK_HasError()
T4978 000:468.528 JLINK_WriteReg(R0, 0x08000000)
T4978 000:468.558 - 0.042ms returns 0
T4978 000:468.584 JLINK_WriteReg(R1, 0x00000800)
T4978 000:468.609 - 0.036ms returns 0
T4978 000:468.635 JLINK_WriteReg(R2, 0x000000FF)
T4978 000:468.659 - 0.036ms returns 0
T4978 000:468.685 JLINK_WriteReg(R3, 0x00000000)
T4978 000:468.709 - 0.036ms returns 0
T4978 000:468.734 JLINK_WriteReg(R4, 0x00000000)
T4978 000:468.759 - 0.036ms returns 0
T4978 000:468.784 JLINK_WriteReg(R5, 0x00000000)
T4978 000:468.808 - 0.036ms returns 0
T4978 000:468.833 JLINK_WriteReg(R6, 0x00000000)
T4978 000:468.858 - 0.036ms returns 0
T4978 000:468.883 JLINK_WriteReg(R7, 0x00000000)
T4978 000:468.908 - 0.036ms returns 0
T4978 000:468.933 JLINK_WriteReg(R8, 0x00000000)
T4978 000:468.957 - 0.036ms returns 0
T4978 000:468.982 JLINK_WriteReg(R9, 0x200001A0)
T4978 000:469.007 - 0.036ms returns 0
T4978 000:469.032 JLINK_WriteReg(R10, 0x00000000)
T4978 000:469.058 - 0.038ms returns 0
T4978 000:469.084 JLINK_WriteReg(R11, 0x00000000)
T4978 000:469.109 - 0.036ms returns 0
T4978 000:469.134 JLINK_WriteReg(R12, 0x00000000)
T4978 000:469.158 - 0.036ms returns 0
T4978 000:469.184 JLINK_WriteReg(R13 (SP), 0x20001000)
T4978 000:469.209 - 0.037ms returns 0
T4978 000:469.234 JLINK_WriteReg(R14, 0x20000001)
T4978 000:469.259 - 0.036ms returns 0
T4978 000:469.284 JLINK_WriteReg(R15 (PC), 0x20000020)
T4978 000:469.309 - 0.036ms returns 0
T4978 000:469.334 JLINK_WriteReg(XPSR, 0x01000000)
T4978 000:469.359 - 0.036ms returns 0
T4978 000:469.384 JLINK_WriteReg(MSP, 0x20001000)
T4978 000:469.408 - 0.036ms returns 0
T4978 000:469.433 JLINK_WriteReg(PSP, 0x20001000)
T4978 000:469.458 - 0.036ms returns 0
T4978 000:469.483 JLINK_WriteReg(CFBP, 0x00000000)
T4978 000:469.507 - 0.036ms returns 0
T4978 000:469.533 JLINK_SetBPEx(Addr = 0x20000000, Type = 0xFFFFFFF2)
T4978 000:469.559 - 0.037ms returns 0x00000002
T4978 000:469.580 JLINK_Go()
T4978 000:469.600   CPU_ReadMem(4 bytes @ 0xE0001000)
T4978 000:476.675 - 7.112ms
T4978 000:476.702 JLINK_IsHalted()
T4978 000:483.459   CPU_ReadMem(2 bytes @ 0x20000000)
T4978 000:484.492 - 7.836ms returns TRUE
T4978 000:484.568 JLINK_ReadReg(R15 (PC))
T4978 000:484.612 - 0.061ms returns 0x20000000
T4978 000:484.650 JLINK_ClrBPEx(BPHandle = 0x00000002)
T4978 000:484.686 - 0.052ms returns 0x00
T4978 000:484.722 JLINK_ReadReg(R0)
T4978 000:484.898 - 0.200ms returns 0x00000001
T4978 000:484.939 JLINK_HasError()
T4978 000:484.956 JLINK_WriteReg(R0, 0x08000000)
T4978 000:484.971 - 0.021ms returns 0
T4978 000:484.986 JLINK_WriteReg(R1, 0x00000800)
T4978 000:485.000 - 0.020ms returns 0
T4978 000:485.015 JLINK_WriteReg(R2, 0x000000FF)
T4978 000:485.029 - 0.020ms returns 0
T4978 000:485.044 JLINK_WriteReg(R3, 0x00000000)
T4978 000:485.057 - 0.020ms returns 0
T4978 000:485.074 JLINK_WriteReg(R4, 0x00000000)
T4978 000:485.086 - 0.017ms returns 0
T4978 000:485.098 JLINK_WriteReg(R5, 0x00000000)
T4978 000:485.109 - 0.017ms returns 0
T4978 000:485.121 JLINK_WriteReg(R6, 0x00000000)
T4978 000:485.133 - 0.017ms returns 0
T4978 000:485.145 JLINK_WriteReg(R7, 0x00000000)
T4978 000:485.157 - 0.017ms returns 0
T4978 000:485.169 JLINK_WriteReg(R8, 0x00000000)
T4978 000:485.180 - 0.017ms returns 0
T4978 000:485.192 JLINK_WriteReg(R9, 0x200001A0)
T4978 000:485.204 - 0.017ms returns 0
T4978 000:485.216 JLINK_WriteReg(R10, 0x00000000)
T4978 000:485.227 - 0.017ms returns 0
T4978 000:485.239 JLINK_WriteReg(R11, 0x00000000)
T4978 000:485.251 - 0.017ms returns 0
T4978 000:485.263 JLINK_WriteReg(R12, 0x00000000)
T4978 000:485.275 - 0.017ms returns 0
T4978 000:485.287 JLINK_WriteReg(R13 (SP), 0x20001000)
T4978 000:485.298 - 0.017ms returns 0
T4978 000:485.311 JLINK_WriteReg(R14, 0x20000001)
T4978 000:485.322 - 0.017ms returns 0
T4978 000:485.334 JLINK_WriteReg(R15 (PC), 0x200000CE)
T4978 000:485.346 - 0.017ms returns 0
T4978 000:485.358 JLINK_WriteReg(XPSR, 0x01000000)
T4978 000:485.370 - 0.017ms returns 0
T4978 000:485.382 JLINK_WriteReg(MSP, 0x20001000)
T4978 000:485.393 - 0.017ms returns 0
T4978 000:485.405 JLINK_WriteReg(PSP, 0x20001000)
T4978 000:485.417 - 0.017ms returns 0
T4978 000:485.429 JLINK_WriteReg(CFBP, 0x00000000)
T4978 000:485.441 - 0.017ms returns 0
T4978 000:485.453 JLINK_SetBPEx(Addr = 0x20000000, Type = 0xFFFFFFF2)
T4978 000:485.465 - 0.020ms returns 0x00000003
T4978 000:485.480 JLINK_Go()
T4978 000:485.497   CPU_ReadMem(4 bytes @ 0xE0001000)
T4978 000:492.804 - 7.341ms
T4978 000:492.832 JLINK_IsHalted()
T4978 000:493.735 - 0.936ms returns FALSE
T4978 000:493.789 JLINK_HasError()
T4978 000:504.752 JLINK_IsHalted()
T4978 000:511.731   CPU_ReadMem(2 bytes @ 0x20000000)
T4978 000:512.816 - 8.092ms returns TRUE
T4978 000:512.856 JLINK_ReadReg(R15 (PC))
T4978 000:512.874 - 0.023ms returns 0x20000000
T4978 000:512.886 JLINK_ClrBPEx(BPHandle = 0x00000003)
T4978 000:512.899 - 0.018ms returns 0x00
T4978 000:512.911 JLINK_ReadReg(R0)
T4978 000:512.923 - 0.017ms returns 0x00000000
T4978 000:513.866 JLINK_HasError()
T4978 000:513.894 JLINK_WriteReg(R0, 0x00000001)
T4978 000:513.909 - 0.020ms returns 0
T4978 000:513.921 JLINK_WriteReg(R1, 0x00000800)
T4978 000:513.933 - 0.017ms returns 0
T4978 000:513.946 JLINK_WriteReg(R2, 0x000000FF)
T4978 000:513.957 - 0.017ms returns 0
T4978 000:513.969 JLINK_WriteReg(R3, 0x00000000)
T4978 000:513.981 - 0.017ms returns 0
T4978 000:513.993 JLINK_WriteReg(R4, 0x00000000)
T4978 000:514.004 - 0.017ms returns 0
T4978 000:514.016 JLINK_WriteReg(R5, 0x00000000)
T4978 000:514.028 - 0.017ms returns 0
T4978 000:514.040 JLINK_WriteReg(R6, 0x00000000)
T4978 000:514.051 - 0.017ms returns 0
T4978 000:514.063 JLINK_WriteReg(R7, 0x00000000)
T4978 000:514.077 - 0.018ms returns 0
T4978 000:514.089 JLINK_WriteReg(R8, 0x00000000)
T4978 000:514.100 - 0.017ms returns 0
T4978 000:514.112 JLINK_WriteReg(R9, 0x200001A0)
T4978 000:514.124 - 0.017ms returns 0
T4978 000:514.136 JLINK_WriteReg(R10, 0x00000000)
T4978 000:514.147 - 0.017ms returns 0
T4978 000:514.159 JLINK_WriteReg(R11, 0x00000000)
T4978 000:514.171 - 0.017ms returns 0
T4978 000:514.183 JLINK_WriteReg(R12, 0x00000000)
T4978 000:514.194 - 0.017ms returns 0
T4978 000:514.206 JLINK_WriteReg(R13 (SP), 0x20001000)
T4978 000:514.218 - 0.017ms returns 0
T4978 000:514.230 JLINK_WriteReg(R14, 0x20000001)
T4978 000:514.242 - 0.017ms returns 0
T4978 000:514.254 JLINK_WriteReg(R15 (PC), 0x2000007E)
T4978 000:514.266 - 0.021ms returns 0
T4978 000:514.285 JLINK_WriteReg(XPSR, 0x01000000)
T4978 000:514.297 - 0.017ms returns 0
T4978 000:514.309 JLINK_WriteReg(MSP, 0x20001000)
T4978 000:514.320 - 0.017ms returns 0
T4978 000:514.332 JLINK_WriteReg(PSP, 0x20001000)
T4978 000:514.344 - 0.017ms returns 0
T4978 000:514.356 JLINK_WriteReg(CFBP, 0x00000000)
T4978 000:514.367 - 0.017ms returns 0
T4978 000:514.379 JLINK_SetBPEx(Addr = 0x20000000, Type = 0xFFFFFFF2)
T4978 000:514.392 - 0.018ms returns 0x00000004
T4978 000:514.404 JLINK_Go()
T4978 000:514.424   CPU_ReadMem(4 bytes @ 0xE0001000)
T4978 000:521.502 - 7.129ms
T4978 000:521.555 JLINK_IsHalted()
T4978 000:528.258   CPU_ReadMem(2 bytes @ 0x20000000)
T4978 000:529.149 - 7.609ms returns TRUE
T4978 000:529.177 JLINK_ReadReg(R15 (PC))
T4978 000:529.192 - 0.020ms returns 0x20000000
T4978 000:529.205 JLINK_ClrBPEx(BPHandle = 0x00000004)
T4978 000:529.217 - 0.018ms returns 0x00
T4978 000:529.230 JLINK_ReadReg(R0)
T4978 000:529.242 - 0.017ms returns 0x00000000
T4978 000:589.070 JLINK_WriteMem(0x20000000, 0x1A8 Bytes, ...)
T4978 000:589.123   Data:  00 BE 0A E0 0D 78 2D 06 68 40 08 24 40 00 00 D3 ...
T4978 000:589.179   CPU_WriteMem(424 bytes @ 0x20000000)
T4978 000:595.395 - 6.378ms returns 0x1A8
T4978 000:595.643 JLINK_HasError()
T4978 000:595.689 JLINK_WriteReg(R0, 0x08000000)
T4978 000:595.733 - 0.061ms returns 0
T4978 000:595.770 JLINK_WriteReg(R1, 0x00B71B00)
T4978 000:595.805 - 0.051ms returns 0
T4978 000:595.841 JLINK_WriteReg(R2, 0x00000002)
T4978 000:595.876 - 0.051ms returns 0
T4978 000:595.916 JLINK_WriteReg(R3, 0x00000000)
T4978 000:595.951 - 0.051ms returns 0
T4978 000:595.986 JLINK_WriteReg(R4, 0x00000000)
T4978 000:596.021 - 0.051ms returns 0
T4978 000:596.057 JLINK_WriteReg(R5, 0x00000000)
T4978 000:596.091 - 0.050ms returns 0
T4978 000:596.126 JLINK_WriteReg(R6, 0x00000000)
T4978 000:596.161 - 0.050ms returns 0
T4978 000:596.196 JLINK_WriteReg(R7, 0x00000000)
T4978 000:596.231 - 0.051ms returns 0
T4978 000:596.266 JLINK_WriteReg(R8, 0x00000000)
T4978 000:596.301 - 0.051ms returns 0
T4978 000:596.337 JLINK_WriteReg(R9, 0x200001A0)
T4978 000:596.372 - 0.051ms returns 0
T4978 000:596.407 JLINK_WriteReg(R10, 0x00000000)
T4978 000:596.442 - 0.051ms returns 0
T4978 000:596.477 JLINK_WriteReg(R11, 0x00000000)
T4978 000:596.512 - 0.051ms returns 0
T4978 000:596.548 JLINK_WriteReg(R12, 0x00000000)
T4978 000:596.582 - 0.050ms returns 0
T4978 000:596.618 JLINK_WriteReg(R13 (SP), 0x20001000)
T4978 000:596.654 - 0.053ms returns 0
T4978 000:596.690 JLINK_WriteReg(R14, 0x20000001)
T4978 000:596.724 - 0.051ms returns 0
T4978 000:596.760 JLINK_WriteReg(R15 (PC), 0x20000038)
T4978 000:596.795 - 0.051ms returns 0
T4978 000:596.830 JLINK_WriteReg(XPSR, 0x01000000)
T4978 000:596.865 - 0.051ms returns 0
T4978 000:596.900 JLINK_WriteReg(MSP, 0x20001000)
T4978 000:596.937 - 0.085ms returns 0
T4978 000:597.004 JLINK_WriteReg(PSP, 0x20001000)
T4978 000:597.037 - 0.049ms returns 0
T4978 000:597.071 JLINK_WriteReg(CFBP, 0x00000000)
T4978 000:597.104 - 0.048ms returns 0
T4978 000:597.138 JLINK_SetBPEx(Addr = 0x20000000, Type = 0xFFFFFFF2)
T4978 000:597.181   CPU_ReadMem(4 bytes @ 0x20000000)
T4978 000:598.179   CPU_WriteMem(4 bytes @ 0x20000000)
T4978 000:599.060   CPU_ReadMem(4 bytes @ 0x20000000)
T4978 000:599.898   CPU_WriteMem(4 bytes @ 0x20000000)
T4978 000:600.808   CPU_ReadMem(2 bytes @ 0x20000000)
T4978 000:601.658 - 4.550ms returns 0x00000005
T4978 000:601.708 JLINK_Go()
T4978 000:601.739   CPU_WriteMem(2 bytes @ 0x20000000)
T4978 000:602.612   CPU_ReadMem(4 bytes @ 0xE0001000)
T4978 000:609.849 - 8.209ms
T4978 000:609.949 JLINK_IsHalted()
T4978 000:616.724   CPU_ReadMem(2 bytes @ 0x20000000)
T4978 000:617.752 - 7.848ms returns TRUE
T4978 000:617.828 JLINK_ReadReg(R15 (PC))
T4978 000:617.872 - 0.061ms returns 0x20000000
T4978 000:617.912 JLINK_ClrBPEx(BPHandle = 0x00000005)
T4978 000:617.948 - 0.053ms returns 0x00
T4978 000:617.987 JLINK_ReadReg(R0)
T4978 000:618.022 - 0.053ms returns 0x00000000
T4978 000:618.957 JLINK_WriteMem(0x200001A8, 0x258 Bytes, ...)
T4978 000:618.985   Data:  08 10 00 20 31 02 00 08 F7 03 00 08 8D 03 00 08 ...
T4978 000:619.011   CPU_WriteMem(600 bytes @ 0x200001A8)
T4978 000:627.445 - 8.554ms returns 0x258
T4978 000:627.542 JLINK_WriteMem(0x20000400, 0x400 Bytes, ...)
T4978 000:627.578   Data:  06 E0 E0 68 40 F0 01 03 94 E8 07 00 98 47 10 34 ...
T4978 000:627.651   CPU_WriteMem(1024 bytes @ 0x20000400)
T4978 000:641.411 - 13.939ms returns 0x400
T4978 000:641.510 JLINK_WriteMem(0x20000800, 0x1A8 Bytes, ...)
T4978 000:641.545   Data:  A3 FE 00 24 12 E0 08 21 2A 48 FF F7 95 FE 4F F4 ...
T4978 000:641.611   CPU_WriteMem(424 bytes @ 0x20000800)
T4978 000:647.952 - 6.491ms returns 0x1A8
T4978 000:648.047 JLINK_HasError()
T4978 000:648.090 JLINK_WriteReg(R0, 0x08000000)
T4978 000:648.135 - 0.062ms returns 0
T4978 000:648.173 JLINK_WriteReg(R1, 0x0000073C)
T4978 000:648.209 - 0.052ms returns 0
T4978 000:648.247 JLINK_WriteReg(R2, 0x200001A8)
T4978 000:648.282 - 0.052ms returns 0
T4978 000:648.320 JLINK_WriteReg(R3, 0x00000000)
T4978 000:648.355 - 0.051ms returns 0
T4978 000:648.393 JLINK_WriteReg(R4, 0x00000000)
T4978 000:648.427 - 0.051ms returns 0
T4978 000:648.465 JLINK_WriteReg(R5, 0x00000000)
T4978 000:648.500 - 0.052ms returns 0
T4978 000:648.538 JLINK_WriteReg(R6, 0x00000000)
T4978 000:648.573 - 0.052ms returns 0
T4978 000:648.611 JLINK_WriteReg(R7, 0x00000000)
T4978 000:648.645 - 0.051ms returns 0
T4978 000:648.683 JLINK_WriteReg(R8, 0x00000000)
T4978 000:648.718 - 0.052ms returns 0
T4978 000:648.756 JLINK_WriteReg(R9, 0x200001A0)
T4978 000:648.791 - 0.051ms returns 0
T4978 000:648.828 JLINK_WriteReg(R10, 0x00000000)
T4978 000:648.863 - 0.051ms returns 0
T4978 000:648.901 JLINK_WriteReg(R11, 0x00000000)
T4978 000:648.935 - 0.055ms returns 0
T4978 000:648.978 JLINK_WriteReg(R12, 0x00000000)
T4978 000:649.013 - 0.053ms returns 0
T4978 000:649.056 JLINK_WriteReg(R13 (SP), 0x20001000)
T4978 000:649.084 - 0.040ms returns 0
T4978 000:649.112 JLINK_WriteReg(R14, 0x20000001)
T4978 000:649.139 - 0.044ms returns 0
T4978 000:649.171 JLINK_WriteReg(R15 (PC), 0x20000110)
T4978 000:649.196 - 0.036ms returns 0
T4978 000:649.222 JLINK_WriteReg(XPSR, 0x01000000)
T4978 000:649.246 - 0.036ms returns 0
T4978 000:649.272 JLINK_WriteReg(MSP, 0x20001000)
T4978 000:649.296 - 0.036ms returns 0
T4978 000:649.322 JLINK_WriteReg(PSP, 0x20001000)
T4978 000:649.347 - 0.036ms returns 0
T4978 000:649.373 JLINK_WriteReg(CFBP, 0x00000000)
T4978 000:649.397 - 0.036ms returns 0
T4978 000:649.424 JLINK_SetBPEx(Addr = 0x20000000, Type = 0xFFFFFFF2)
T4978 000:649.450 - 0.038ms returns 0x00000006
T4978 000:649.476 JLINK_Go()
T4978 000:649.513   CPU_ReadMem(4 bytes @ 0xE0001000)
T4978 000:656.628 - 7.205ms
T4978 000:656.711 JLINK_IsHalted()
T4978 000:657.650 - 0.954ms returns FALSE
T4978 000:657.676 JLINK_HasError()
T4978 000:661.931 JLINK_IsHalted()
T4978 000:662.870 - 0.956ms returns FALSE
T4978 000:662.897 JLINK_HasError()
T4978 000:664.897 JLINK_IsHalted()
T4978 000:665.858 - 0.978ms returns FALSE
T4978 000:665.887 JLINK_HasError()
T4978 000:667.932 JLINK_IsHalted()
T4978 000:668.902 - 1.027ms returns FALSE
T4978 000:668.988 JLINK_HasError()
T4978 000:670.900 JLINK_IsHalted()
T4978 000:671.801 - 0.918ms returns FALSE
T4978 000:671.826 JLINK_HasError()
T4978 000:673.799 JLINK_IsHalted()
T4978 000:680.801   CPU_ReadMem(2 bytes @ 0x20000000)
T4978 000:681.843 - 8.089ms returns TRUE
T4978 000:681.914 JLINK_ReadReg(R15 (PC))
T4978 000:681.955 - 0.057ms returns 0x20000000
T4978 000:681.990 JLINK_ClrBPEx(BPHandle = 0x00000006)
T4978 000:682.024 - 0.049ms returns 0x00
T4978 000:682.059 JLINK_ReadReg(R0)
T4978 000:682.090 - 0.043ms returns 0x00000000
T4978 000:682.117 JLINK_HasError()
T4978 000:682.142 JLINK_WriteReg(R0, 0x00000002)
T4978 000:682.168 - 0.037ms returns 0
T4978 000:682.193 JLINK_WriteReg(R1, 0x0000073C)
T4978 000:682.217 - 0.036ms returns 0
T4978 000:682.242 JLINK_WriteReg(R2, 0x200001A8)
T4978 000:682.267 - 0.036ms returns 0
T4978 000:682.292 JLINK_WriteReg(R3, 0x00000000)
T4978 000:682.325 - 0.045ms returns 0
T4978 000:682.351 JLINK_WriteReg(R4, 0x00000000)
T4978 000:682.375 - 0.036ms returns 0
T4978 000:682.400 JLINK_WriteReg(R5, 0x00000000)
T4978 000:682.424 - 0.036ms returns 0
T4978 000:682.449 JLINK_WriteReg(R6, 0x00000000)
T4978 000:682.474 - 0.036ms returns 0
T4978 000:682.499 JLINK_WriteReg(R7, 0x00000000)
T4978 000:682.523 - 0.035ms returns 0
T4978 000:682.548 JLINK_WriteReg(R8, 0x00000000)
T4978 000:682.572 - 0.036ms returns 0
T4978 000:682.598 JLINK_WriteReg(R9, 0x200001A0)
T4978 000:682.622 - 0.035ms returns 0
T4978 000:682.647 JLINK_WriteReg(R10, 0x00000000)
T4978 000:682.671 - 0.035ms returns 0
T4978 000:682.696 JLINK_WriteReg(R11, 0x00000000)
T4978 000:682.720 - 0.036ms returns 0
T4978 000:682.846 JLINK_WriteReg(R12, 0x00000000)
T4978 000:682.897 - 0.063ms returns 0
T4978 000:682.917 JLINK_WriteReg(R13 (SP), 0x20001000)
T4978 000:682.930 - 0.019ms returns 0
T4978 000:682.944 JLINK_WriteReg(R14, 0x20000001)
T4978 000:682.957 - 0.018ms returns 0
T4978 000:682.969 JLINK_WriteReg(R15 (PC), 0x2000007E)
T4978 000:682.980 - 0.017ms returns 0
T4978 000:682.992 JLINK_WriteReg(XPSR, 0x01000000)
T4978 000:683.004 - 0.017ms returns 0
T4978 000:683.016 JLINK_WriteReg(MSP, 0x20001000)
T4978 000:683.027 - 0.017ms returns 0
T4978 000:683.039 JLINK_WriteReg(PSP, 0x20001000)
T4978 000:683.051 - 0.017ms returns 0
T4978 000:683.063 JLINK_WriteReg(CFBP, 0x00000000)
T4978 000:683.074 - 0.017ms returns 0
T4978 000:683.086 JLINK_SetBPEx(Addr = 0x20000000, Type = 0xFFFFFFF2)
T4978 000:683.099 - 0.018ms returns 0x00000007
T4978 000:683.111 JLINK_Go()
T4978 000:683.129   CPU_ReadMem(4 bytes @ 0xE0001000)
T4978 000:690.204 - 7.144ms
T4978 000:690.284 JLINK_IsHalted()
T4978 000:697.222   CPU_ReadMem(2 bytes @ 0x20000000)
T4978 000:698.230 - 7.990ms returns TRUE
T4978 000:698.300 JLINK_ReadReg(R15 (PC))
T4978 000:698.339 - 0.055ms returns 0x20000000
T4978 000:698.374 JLINK_ClrBPEx(BPHandle = 0x00000007)
T4978 000:698.408 - 0.049ms returns 0x00
T4978 000:698.442 JLINK_ReadReg(R0)
T4978 000:698.475 - 0.049ms returns 0x00000000
T4978 000:757.960 JLINK_WriteMem(0x20000000, 0x1A8 Bytes, ...)
T4978 000:757.990   Data:  00 BE 0A E0 0D 78 2D 06 68 40 08 24 40 00 00 D3 ...
T4978 000:758.023   CPU_WriteMem(424 bytes @ 0x20000000)
T4978 000:764.254 - 6.353ms returns 0x1A8
T4978 000:764.543 JLINK_HasError()
T4978 000:764.616 JLINK_WriteReg(R0, 0x08000000)
T4978 000:764.663 - 0.068ms returns 0
T4978 000:764.753 JLINK_WriteReg(R1, 0x00B71B00)
T4978 000:764.789 - 0.052ms returns 0
T4978 000:764.824 JLINK_WriteReg(R2, 0x00000003)
T4978 000:764.859 - 0.051ms returns 0
T4978 000:764.894 JLINK_WriteReg(R3, 0x00000000)
T4978 000:764.929 - 0.050ms returns 0
T4978 000:764.964 JLINK_WriteReg(R4, 0x00000000)
T4978 000:764.999 - 0.050ms returns 0
T4978 000:765.034 JLINK_WriteReg(R5, 0x00000000)
T4978 000:765.069 - 0.050ms returns 0
T4978 000:765.104 JLINK_WriteReg(R6, 0x00000000)
T4978 000:765.138 - 0.050ms returns 0
T4978 000:765.174 JLINK_WriteReg(R7, 0x00000000)
T4978 000:765.208 - 0.051ms returns 0
T4978 000:765.243 JLINK_WriteReg(R8, 0x00000000)
T4978 000:765.281 - 0.050ms returns 0
T4978 000:765.308 JLINK_WriteReg(R9, 0x200001A0)
T4978 000:765.335 - 0.038ms returns 0
T4978 000:765.362 JLINK_WriteReg(R10, 0x00000000)
T4978 000:765.393 - 0.042ms returns 0
T4978 000:765.418 JLINK_WriteReg(R11, 0x00000000)
T4978 000:765.442 - 0.035ms returns 0
T4978 000:765.467 JLINK_WriteReg(R12, 0x00000000)
T4978 000:765.491 - 0.035ms returns 0
T4978 000:765.516 JLINK_WriteReg(R13 (SP), 0x20001000)
T4978 000:765.542 - 0.037ms returns 0
T4978 000:765.567 JLINK_WriteReg(R14, 0x20000001)
T4978 000:765.592 - 0.036ms returns 0
T4978 000:765.617 JLINK_WriteReg(R15 (PC), 0x20000038)
T4978 000:765.641 - 0.036ms returns 0
T4978 000:765.666 JLINK_WriteReg(XPSR, 0x01000000)
T4978 000:765.691 - 0.037ms returns 0
T4978 000:765.717 JLINK_WriteReg(MSP, 0x20001000)
T4978 000:765.742 - 0.035ms returns 0
T4978 000:765.767 JLINK_WriteReg(PSP, 0x20001000)
T4978 000:765.874 - 0.123ms returns 0
T4978 000:765.905 JLINK_WriteReg(CFBP, 0x00000000)
T4978 000:765.930 - 0.036ms returns 0
T4978 000:765.956 JLINK_SetBPEx(Addr = 0x20000000, Type = 0xFFFFFFF2)
T4978 000:765.988   CPU_ReadMem(4 bytes @ 0x20000000)
T4978 000:766.874   CPU_WriteMem(4 bytes @ 0x20000000)
T4978 000:767.730   CPU_ReadMem(4 bytes @ 0x20000000)
T4978 000:768.609   CPU_WriteMem(4 bytes @ 0x20000000)
T4978 000:769.440   CPU_ReadMem(2 bytes @ 0x20000000)
T4978 000:770.297 - 4.376ms returns 0x00000008
T4978 000:770.360 JLINK_Go()
T4978 000:770.403   CPU_WriteMem(2 bytes @ 0x20000000)
T4978 000:771.359   CPU_ReadMem(4 bytes @ 0xE0001000)
T4978 000:778.505 - 8.183ms
T4978 000:778.554 JLINK_IsHalted()
T4978 000:785.405   CPU_ReadMem(2 bytes @ 0x20000000)
T4978 000:786.425 - 7.916ms returns TRUE
T4978 000:786.498 JLINK_ReadReg(R15 (PC))
T4978 000:786.541 - 0.060ms returns 0x20000000
T4978 000:786.578 JLINK_ClrBPEx(BPHandle = 0x00000008)
T4978 000:786.622 - 0.059ms returns 0x00
T4978 000:786.656 JLINK_ReadReg(R0)
T4978 000:786.689 - 0.049ms returns 0x00000000
T4978 000:786.725 JLINK_HasError()
T4978 000:786.760 JLINK_WriteReg(R0, 0xFFFFFFFF)
T4978 000:786.794 - 0.049ms returns 0
T4978 000:786.828 JLINK_WriteReg(R1, 0x08000000)
T4978 000:786.861 - 0.048ms returns 0
T4978 000:786.894 JLINK_WriteReg(R2, 0x0000073C)
T4978 000:786.928 - 0.048ms returns 0
T4978 000:786.961 JLINK_WriteReg(R3, 0x04C11DB7)
T4978 000:786.994 - 0.048ms returns 0
T4978 000:787.027 JLINK_WriteReg(R4, 0x00000000)
T4978 000:787.060 - 0.048ms returns 0
T4978 000:787.093 JLINK_WriteReg(R5, 0x00000000)
T4978 000:787.126 - 0.048ms returns 0
T4978 000:787.160 JLINK_WriteReg(R6, 0x00000000)
T4978 000:787.193 - 0.048ms returns 0
T4978 000:787.226 JLINK_WriteReg(R7, 0x00000000)
T4978 000:787.259 - 0.048ms returns 0
T4978 000:787.293 JLINK_WriteReg(R8, 0x00000000)
T4978 000:787.314 - 0.026ms returns 0
T4978 000:787.326 JLINK_WriteReg(R9, 0x200001A0)
T4978 000:787.337 - 0.017ms returns 0
T4978 000:787.349 JLINK_WriteReg(R10, 0x00000000)
T4978 000:787.361 - 0.017ms returns 0
T4978 000:787.373 JLINK_WriteReg(R11, 0x00000000)
T4978 000:787.384 - 0.017ms returns 0
T4978 000:787.396 JLINK_WriteReg(R12, 0x00000000)
T4978 000:787.409 - 0.018ms returns 0
T4978 000:787.421 JLINK_WriteReg(R13 (SP), 0x20001000)
T4978 000:787.433 - 0.017ms returns 0
T4978 000:787.445 JLINK_WriteReg(R14, 0x20000001)
T4978 000:787.457 - 0.017ms returns 0
T4978 000:787.469 JLINK_WriteReg(R15 (PC), 0x20000002)
T4978 000:787.480 - 0.017ms returns 0
T4978 000:787.492 JLINK_WriteReg(XPSR, 0x01000000)
T4978 000:787.504 - 0.017ms returns 0
T4978 000:787.516 JLINK_WriteReg(MSP, 0x20001000)
T4978 000:787.527 - 0.017ms returns 0
T4978 000:787.539 JLINK_WriteReg(PSP, 0x20001000)
T4978 000:787.551 - 0.017ms returns 0
T4978 000:787.563 JLINK_WriteReg(CFBP, 0x00000000)
T4978 000:787.574 - 0.017ms returns 0
T4978 000:787.586 JLINK_SetBPEx(Addr = 0x20000000, Type = 0xFFFFFFF2)
T4978 000:787.599 - 0.018ms returns 0x00000009
T4978 000:787.611 JLINK_Go()
T4978 000:787.628   CPU_ReadMem(4 bytes @ 0xE0001000)
T4978 000:794.558 - 6.966ms
T4978 000:794.588 JLINK_IsHalted()
T4978 000:795.476 - 0.933ms returns FALSE
T4978 000:795.549 JLINK_HasError()
T4978 000:799.847 JLINK_IsHalted()
T4978 000:800.840 - 1.039ms returns FALSE
T4978 000:800.911 JLINK_HasError()
T4978 000:802.465 JLINK_IsHalted()
T4978 000:803.459 - 1.010ms returns FALSE
T4978 000:803.484 JLINK_HasError()
T4978 000:805.478 JLINK_IsHalted()
T4978 000:806.390 - 0.943ms returns FALSE
T4978 000:806.448 JLINK_HasError()
T4978 000:808.474 JLINK_IsHalted()
T4978 000:809.284 - 0.825ms returns FALSE
T4978 000:809.309 JLINK_HasError()
T4978 000:811.476 JLINK_IsHalted()
T4978 000:812.439 - 0.979ms returns FALSE
T4978 000:812.465 JLINK_HasError()
T4978 000:814.458 JLINK_IsHalted()
T4978 000:815.397 - 0.971ms returns FALSE
T4978 000:815.449 JLINK_HasError()
T4978 000:817.416 JLINK_IsHalted()
T4978 000:824.307   CPU_ReadMem(2 bytes @ 0x20000000)
T4978 000:825.150 - 7.753ms returns TRUE
T4978 000:825.184 JLINK_ReadReg(R15 (PC))
T4978 000:825.199 - 0.021ms returns 0x20000000
T4978 000:825.213 JLINK_ClrBPEx(BPHandle = 0x00000009)
T4978 000:825.225 - 0.017ms returns 0x00
T4978 000:825.239 JLINK_ReadReg(R0)
T4978 000:825.251 - 0.019ms returns 0x60BF6776
T4978 000:825.940 JLINK_HasError()
T4978 000:825.965 JLINK_WriteReg(R0, 0x00000003)
T4978 000:825.980 - 0.020ms returns 0
T4978 000:825.992 JLINK_WriteReg(R1, 0x08000000)
T4978 000:826.004 - 0.017ms returns 0
T4978 000:826.016 JLINK_WriteReg(R2, 0x0000073C)
T4978 000:826.028 - 0.017ms returns 0
T4978 000:826.041 JLINK_WriteReg(R3, 0x04C11DB7)
T4978 000:826.052 - 0.017ms returns 0
T4978 000:826.064 JLINK_WriteReg(R4, 0x00000000)
T4978 000:826.076 - 0.017ms returns 0
T4978 000:826.088 JLINK_WriteReg(R5, 0x00000000)
T4978 000:826.100 - 0.017ms returns 0
T4978 000:826.112 JLINK_WriteReg(R6, 0x00000000)
T4978 000:826.123 - 0.017ms returns 0
T4978 000:826.135 JLINK_WriteReg(R7, 0x00000000)
T4978 000:826.147 - 0.017ms returns 0
T4978 000:826.159 JLINK_WriteReg(R8, 0x00000000)
T4978 000:826.170 - 0.017ms returns 0
T4978 000:826.183 JLINK_WriteReg(R9, 0x200001A0)
T4978 000:826.196 - 0.020ms returns 0
T4978 000:826.210 JLINK_WriteReg(R10, 0x00000000)
T4978 000:826.221 - 0.017ms returns 0
T4978 000:826.233 JLINK_WriteReg(R11, 0x00000000)
T4978 000:826.245 - 0.017ms returns 0
T4978 000:826.257 JLINK_WriteReg(R12, 0x00000000)
T4978 000:826.268 - 0.017ms returns 0
T4978 000:826.280 JLINK_WriteReg(R13 (SP), 0x20001000)
T4978 000:826.292 - 0.017ms returns 0
T4978 000:826.304 JLINK_WriteReg(R14, 0x20000001)
T4978 000:826.316 - 0.017ms returns 0
T4978 000:826.328 JLINK_WriteReg(R15 (PC), 0x2000007E)
T4978 000:826.340 - 0.017ms returns 0
T4978 000:826.352 JLINK_WriteReg(XPSR, 0x01000000)
T4978 000:826.363 - 0.017ms returns 0
T4978 000:826.375 JLINK_WriteReg(MSP, 0x20001000)
T4978 000:826.387 - 0.017ms returns 0
T4978 000:826.399 JLINK_WriteReg(PSP, 0x20001000)
T4978 000:826.411 - 0.017ms returns 0
T4978 000:826.422 JLINK_WriteReg(CFBP, 0x00000000)
T4978 000:826.434 - 0.017ms returns 0
T4978 000:826.446 JLINK_SetBPEx(Addr = 0x20000000, Type = 0xFFFFFFF2)
T4978 000:826.459 - 0.018ms returns 0x0000000A
T4978 000:826.471 JLINK_Go()
T4978 000:826.490   CPU_ReadMem(4 bytes @ 0xE0001000)
T4978 000:833.595 - 7.156ms
T4978 000:833.645 JLINK_IsHalted()
T4978 000:840.294   CPU_ReadMem(2 bytes @ 0x20000000)
T4978 000:841.081 - 7.467ms returns TRUE
T4978 000:841.131 JLINK_ReadReg(R15 (PC))
T4978 000:841.161 - 0.041ms returns 0x20000000
T4978 000:841.187 JLINK_ClrBPEx(BPHandle = 0x0000000A)
T4978 000:841.212 - 0.036ms returns 0x00
T4978 000:841.238 JLINK_ReadReg(R0)
T4978 000:841.262 - 0.036ms returns 0x00000000
T4978 000:895.971 JLINK_WriteMemEx(0x20000000, 0x00000002 Bytes, Flags = 0x02000000)
T4978 000:896.030   Data:  FE E7
T4978 000:896.063   CPU_WriteMem(2 bytes @ 0x20000000)
T4978 000:896.969 - 1.030ms returns 0x2
T4978 000:897.021 JLINK_HasError()
T4978 000:907.131 JLINK_Close()
T4978 000:907.856   CPU_ReadMem(4 bytes @ 0xE0001000)
T4978 000:925.741 - 18.655ms
T4978 000:925.793   
T4978 000:925.805   Closed
